      Freq,    Re(Vin),    Im(Vin),   Re(Vout),   Im(Vout),    Re(Iin),    Im(Iin),   Re(Iout),   Im(Iout),    Re(Pin),    Im(Pin),   Re(Zout),   Im(Zout),   Re(Pout),   Im(Pout),    Re(Zin),    Im(Zin),     Re(Av),     Im(Av),     Re(Ai),     Im(Ai), 
        Hz,          V,          V,          V,          V,          A,          A,          A,          A,          W,          W,       Ohms,       Ohms,          W,          W,       Ohms,       Ohms,           ,           ,           ,           , 
 1.000E+01,  5.000E+00, -4.995E-05,  5.545E-10,  3.330E-05,  1.663E-11,  9.990E-07,  1.109E-11,  6.660E-07,  3.327E-11, -4.995E-06,  1.000E+02, -1.998E-03,  2.218E-11,  4.930E-32,  3.333E+01, -5.005E+06,  4.436E-11,  6.660E-06,  6.667E-01,  0.000E+00, 
 2.041E+05,  4.689E+00, -9.139E-01,  2.070E-01,  6.093E-01,  6.211E-03,  1.828E-02,  4.141E-03,  1.219E-02,  1.242E-02, -9.139E-02,  8.185E+01, -2.968E+01,  8.282E-03,  4.337E-19,  3.333E+01, -2.452E+02,  1.814E-02,  1.335E-01,  6.667E-01,  0.000E+00, 
 4.082E+05,  4.052E+00, -1.395E+00,  6.319E-01,  9.298E-01,  1.896E-02,  2.789E-02,  1.264E-02,  1.860E-02,  3.791E-02, -1.395E-01,  6.004E+01, -3.267E+01,  2.528E-02, -1.735E-18,  3.333E+01, -1.226E+02,  6.882E-02,  2.531E-01,  6.667E-01,  0.000E+00, 
 6.123E+05,  3.471E+00, -1.500E+00,  1.019E+00,  9.998E-01,  3.058E-02,  2.999E-02,  2.038E-02,  2.000E-02,  6.115E-02, -1.500E-01,  4.860E+01, -2.801E+01,  4.077E-02,  0.000E+00,  3.333E+01, -8.174E+01,  1.426E-01,  3.496E-01,  6.667E-01,  0.000E+00, 
 8.163E+05,  3.054E+00, -1.432E+00,  1.298E+00,  9.547E-01,  3.893E-02,  2.864E-02,  2.595E-02,  1.909E-02,  7.786E-02, -1.432E-01,  4.288E+01, -2.335E+01,  5.191E-02,  0.000E+00,  3.333E+01, -6.131E+01,  2.282E-01,  4.196E-01,  6.667E-01,  0.000E+00, 
 1.020E+06,  2.772E+00, -1.311E+00,  1.485E+00,  8.743E-01,  4.456E-02,  2.623E-02,  2.971E-02,  1.749E-02,  8.913E-02, -1.311E-01,  3.977E+01, -1.969E+01,  5.942E-02,  0.000E+00,  3.333E+01, -4.905E+01,  3.159E-01,  4.649E-01,  6.667E-01,  0.000E+00, 
 1.224E+06,  2.582E+00, -1.186E+00,  1.612E+00,  7.907E-01,  4.837E-02,  2.372E-02,  3.224E-02,  1.581E-02,  9.673E-02, -1.186E-01,  3.794E+01, -1.691E+01,  6.449E-02,  0.000E+00,  3.333E+01, -4.087E+01,  3.994E-01,  4.898E-01,  6.667E-01,  0.000E+00, 
 1.429E+06,  2.451E+00, -1.072E+00,  1.700E+00,  7.145E-01,  5.099E-02,  2.144E-02,  3.399E-02,  1.429E-02,  1.020E-01, -1.072E-01,  3.678E+01, -1.477E+01,  6.798E-02, -3.469E-18,  3.333E+01, -3.503E+01,  4.751E-01,  4.994E-01,  6.667E-01,  0.000E+00, 
 1.633E+06,  2.358E+00, -9.720E-01,  1.762E+00,  6.480E-01,  5.285E-02,  1.944E-02,  3.523E-02,  1.296E-02,  1.057E-01, -9.720E-02,  3.601E+01, -1.308E+01,  7.046E-02,  0.000E+00,  3.333E+01, -3.065E+01,  5.418E-01,  4.983E-01,  6.667E-01,  0.000E+00, 
 1.837E+06,  2.290E+00, -8.862E-01,  1.807E+00,  5.908E-01,  5.420E-02,  1.772E-02,  3.614E-02,  1.182E-02,  1.084E-01, -8.862E-02,  3.546E+01, -1.172E+01,  7.227E-02, -3.469E-18,  3.333E+01, -2.725E+01,  5.994E-01,  4.900E-01,  6.667E-01,  0.000E+00, 
 2.041E+06,  2.239E+00, -8.125E-01,  1.841E+00,  5.417E-01,  5.522E-02,  1.625E-02,  3.681E-02,  1.083E-02,  1.104E-01, -8.125E-02,  3.507E+01, -1.062E+01,  7.362E-02, -3.469E-18,  3.333E+01, -2.452E+01,  6.488E-01,  4.773E-01,  6.667E-01,  0.000E+00, 
 2.245E+06,  2.200E+00, -7.490E-01,  1.866E+00,  4.993E-01,  5.599E-02,  1.498E-02,  3.733E-02,  9.987E-03,  1.120E-01, -7.490E-02,  3.477E+01, -9.694E+00,  7.466E-02,  0.000E+00,  3.333E+01, -2.229E+01,  6.909E-01,  4.621E-01,  6.667E-01,  0.000E+00, 
 2.449E+06,  2.170E+00, -6.940E-01,  1.887E+00,  4.627E-01,  5.660E-02,  1.388E-02,  3.773E-02,  9.253E-03,  1.132E-01, -6.940E-02,  3.455E+01, -8.917E+00,  7.546E-02,  0.000E+00,  3.333E+01, -2.044E+01,  7.268E-01,  4.456E-01,  6.667E-01,  0.000E+00, 
 2.653E+06,  2.146E+00, -6.460E-01,  1.903E+00,  4.307E-01,  5.708E-02,  1.292E-02,  3.805E-02,  8.614E-03,  1.142E-01, -6.460E-02,  3.437E+01, -8.254E+00,  7.610E-02,  0.000E+00,  3.333E+01, -1.886E+01,  7.574E-01,  4.286E-01,  6.667E-01,  0.000E+00, 
 2.857E+06,  2.127E+00, -6.039E-01,  1.915E+00,  4.026E-01,  5.746E-02,  1.208E-02,  3.831E-02,  8.052E-03,  1.149E-01, -6.039E-02,  3.423E+01, -7.681E+00,  7.661E-02,  0.000E+00,  3.333E+01, -1.752E+01,  7.836E-01,  4.118E-01,  6.667E-01,  0.000E+00, 
 3.061E+06,  2.111E+00, -5.668E-01,  1.926E+00,  3.778E-01,  5.778E-02,  1.134E-02,  3.852E-02,  7.557E-03,  1.156E-01, -5.668E-02,  3.412E+01, -7.181E+00,  7.703E-02, -1.735E-18,  3.333E+01, -1.635E+01,  8.061E-01,  3.954E-01,  6.667E-01,  0.000E+00, 
 3.265E+06,  2.098E+00, -5.337E-01,  1.935E+00,  3.558E-01,  5.804E-02,  1.067E-02,  3.869E-02,  7.116E-03,  1.161E-01, -5.337E-02,  3.402E+01, -6.742E+00,  7.738E-02, -1.735E-18,  3.333E+01, -1.533E+01,  8.255E-01,  3.796E-01,  6.667E-01,  0.000E+00, 
 3.469E+06,  2.087E+00, -5.042E-01,  1.942E+00,  3.361E-01,  5.825E-02,  1.008E-02,  3.884E-02,  6.723E-03,  1.165E-01, -5.042E-02,  3.394E+01, -6.353E+00,  7.767E-02,  0.000E+00,  3.333E+01, -1.443E+01,  8.423E-01,  3.645E-01,  6.667E-01,  0.000E+00, 
 3.673E+06,  2.078E+00, -4.777E-01,  1.948E+00,  3.185E-01,  5.844E-02,  9.554E-03,  3.896E-02,  6.369E-03,  1.169E-01, -4.777E-02,  3.388E+01, -6.006E+00,  7.792E-02,  0.000E+00,  3.333E+01, -1.362E+01,  8.569E-01,  3.502E-01,  6.667E-01,  0.000E+00, 
 3.878E+06,  2.070E+00, -4.538E-01,  1.953E+00,  3.025E-01,  5.859E-02,  9.076E-03,  3.906E-02,  6.050E-03,  1.172E-01, -4.538E-02,  3.382E+01, -5.694E+00,  7.813E-02,  0.000E+00,  3.333E+01, -1.291E+01,  8.696E-01,  3.367E-01,  6.667E-01,  0.000E+00, 
 4.082E+06,  2.064E+00, -4.321E-01,  1.958E+00,  2.880E-01,  5.873E-02,  8.641E-03,  3.915E-02,  5.761E-03,  1.175E-01, -4.321E-02,  3.378E+01, -5.414E+00,  7.830E-02,  0.000E+00,  3.333E+01, -1.226E+01,  8.808E-01,  3.240E-01,  6.667E-01,  0.000E+00, 
 4.286E+06,  2.058E+00, -4.123E-01,  1.961E+00,  2.749E-01,  5.884E-02,  8.246E-03,  3.923E-02,  5.497E-03,  1.177E-01, -4.123E-02,  3.373E+01, -5.159E+00,  7.846E-02,  0.000E+00,  3.333E+01, -1.168E+01,  8.907E-01,  3.120E-01,  6.667E-01,  0.000E+00, 
 4.490E+06,  2.053E+00, -3.942E-01,  1.965E+00,  2.628E-01,  5.895E-02,  7.885E-03,  3.930E-02,  5.257E-03,  1.179E-01, -3.942E-02,  3.370E+01, -4.927E+00,  7.859E-02, -1.735E-18,  3.333E+01, -1.115E+01,  8.994E-01,  3.008E-01,  6.667E-01,  0.000E+00, 
 4.694E+06,  2.048E+00, -3.777E-01,  1.968E+00,  2.518E-01,  5.903E-02,  7.553E-03,  3.936E-02,  5.036E-03,  1.181E-01, -3.777E-02,  3.367E+01, -4.715E+00,  7.871E-02,  0.000E+00,  3.333E+01, -1.066E+01,  9.072E-01,  2.902E-01,  6.667E-01,  0.000E+00, 
 4.898E+06,  2.044E+00, -3.624E-01,  1.970E+00,  2.416E-01,  5.911E-02,  7.248E-03,  3.941E-02,  4.832E-03,  1.182E-01, -3.624E-02,  3.364E+01, -4.520E+00,  7.881E-02,  1.735E-18,  3.333E+01, -1.022E+01,  9.141E-01,  2.802E-01,  6.667E-01,  0.000E+00, 
 5.102E+06,  2.041E+00, -3.483E-01,  1.973E+00,  2.322E-01,  5.918E-02,  6.966E-03,  3.945E-02,  4.644E-03,  1.184E-01, -3.483E-02,  3.362E+01, -4.341E+00,  7.891E-02,  0.000E+00,  3.333E+01, -9.810E+00,  9.203E-01,  2.708E-01,  6.667E-01,  0.000E+00, 
 5.306E+06,  2.038E+00, -3.353E-01,  1.975E+00,  2.235E-01,  5.924E-02,  6.705E-03,  3.949E-02,  4.470E-03,  1.185E-01, -3.353E-02,  3.360E+01, -4.176E+00,  7.899E-02, -1.735E-18,  3.333E+01, -9.432E+00,  9.259E-01,  2.620E-01,  6.667E-01,  0.000E+00, 
 5.510E+06,  2.035E+00, -3.231E-01,  1.977E+00,  2.154E-01,  5.930E-02,  6.463E-03,  3.953E-02,  4.309E-03,  1.186E-01, -3.231E-02,  3.358E+01, -4.022E+00,  7.906E-02,  0.000E+00,  3.333E+01, -9.083E+00,  9.309E-01,  2.537E-01,  6.667E-01,  0.000E+00, 
 5.714E+06,  2.033E+00, -3.119E-01,  1.978E+00,  2.079E-01,  5.934E-02,  6.237E-03,  3.956E-02,  4.158E-03,  1.187E-01, -3.119E-02,  3.356E+01, -3.879E+00,  7.913E-02,  1.735E-18,  3.333E+01, -8.759E+00,  9.354E-01,  2.458E-01,  6.667E-01,  0.000E+00, 
 5.918E+06,  2.031E+00, -3.013E-01,  1.980E+00,  2.009E-01,  5.939E-02,  6.027E-03,  3.959E-02,  4.018E-03,  1.188E-01, -3.013E-02,  3.354E+01, -3.747E+00,  7.918E-02,  0.000E+00,  3.333E+01, -8.457E+00,  9.395E-01,  2.384E-01,  6.667E-01,  0.000E+00, 
 6.122E+06,  2.029E+00, -2.915E-01,  1.981E+00,  1.943E-01,  5.943E-02,  5.830E-03,  3.962E-02,  3.886E-03,  1.189E-01, -2.915E-02,  3.353E+01, -3.622E+00,  7.924E-02,  8.674E-19,  3.333E+01, -8.175E+00,  9.433E-01,  2.313E-01,  6.667E-01,  0.000E+00, 
 6.327E+06,  2.027E+00, -2.822E-01,  1.982E+00,  1.882E-01,  5.946E-02,  5.645E-03,  3.964E-02,  3.763E-03,  1.189E-01, -2.822E-02,  3.352E+01, -3.506E+00,  7.929E-02,  0.000E+00,  3.333E+01, -7.911E+00,  9.467E-01,  2.247E-01,  6.667E-01,  0.000E+00, 
 6.531E+06,  2.025E+00, -2.736E-01,  1.983E+00,  1.824E-01,  5.950E-02,  5.472E-03,  3.966E-02,  3.648E-03,  1.190E-01, -2.736E-02,  3.351E+01, -3.397E+00,  7.933E-02,  8.674E-19,  3.333E+01, -7.664E+00,  9.498E-01,  2.184E-01,  6.667E-01,  0.000E+00, 
 6.735E+06,  2.024E+00, -2.654E-01,  1.984E+00,  1.769E-01,  5.953E-02,  5.308E-03,  3.968E-02,  3.539E-03,  1.191E-01, -2.654E-02,  3.350E+01, -3.295E+00,  7.937E-02,  0.000E+00,  3.333E+01, -7.431E+00,  9.526E-01,  2.124E-01,  6.667E-01,  0.000E+00, 
 6.939E+06,  2.022E+00, -2.577E-01,  1.985E+00,  1.718E-01,  5.955E-02,  5.155E-03,  3.970E-02,  3.436E-03,  1.191E-01, -2.577E-02,  3.349E+01, -3.198E+00,  7.941E-02,  0.000E+00,  3.333E+01, -7.213E+00,  9.553E-01,  2.067E-01,  6.667E-01,  0.000E+00, 
 7.143E+06,  2.021E+00, -2.505E-01,  1.986E+00,  1.670E-01,  5.958E-02,  5.009E-03,  3.972E-02,  3.340E-03,  1.192E-01, -2.505E-02,  3.348E+01, -3.107E+00,  7.944E-02,  0.000E+00,  3.333E+01, -7.007E+00,  9.577E-01,  2.013E-01,  6.667E-01,  0.000E+00, 
 7.347E+06,  2.020E+00, -2.436E-01,  1.987E+00,  1.624E-01,  5.960E-02,  4.872E-03,  3.973E-02,  3.248E-03,  1.192E-01, -2.436E-02,  3.347E+01, -3.021E+00,  7.947E-02, -8.674E-19,  3.333E+01, -6.812E+00,  9.599E-01,  1.962E-01,  6.667E-01,  0.000E+00, 
 7.551E+06,  2.019E+00, -2.371E-01,  1.987E+00,  1.581E-01,  5.962E-02,  4.742E-03,  3.975E-02,  3.161E-03,  1.192E-01, -2.371E-02,  3.346E+01, -2.940E+00,  7.950E-02,  0.000E+00,  3.333E+01, -6.628E+00,  9.620E-01,  1.913E-01,  6.667E-01,  0.000E+00, 
 7.755E+06,  2.018E+00, -2.309E-01,  1.988E+00,  1.540E-01,  5.964E-02,  4.619E-03,  3.976E-02,  3.079E-03,  1.193E-01, -2.309E-02,  3.346E+01, -2.863E+00,  7.952E-02, -8.674E-19,  3.333E+01, -6.454E+00,  9.639E-01,  1.866E-01,  6.667E-01,  0.000E+00, 
 7.959E+06,  2.017E+00, -2.251E-01,  1.989E+00,  1.501E-01,  5.966E-02,  4.502E-03,  3.977E-02,  3.001E-03,  1.193E-01, -2.251E-02,  3.345E+01, -2.790E+00,  7.955E-02,  0.000E+00,  3.333E+01, -6.288E+00,  9.656E-01,  1.822E-01,  6.667E-01,  0.000E+00, 
 8.163E+06,  2.016E+00, -2.195E-01,  1.989E+00,  1.464E-01,  5.968E-02,  4.391E-03,  3.978E-02,  2.927E-03,  1.194E-01, -2.195E-02,  3.344E+01, -2.720E+00,  7.957E-02,  0.000E+00,  3.333E+01, -6.131E+00,  9.673E-01,  1.779E-01,  6.667E-01,  0.000E+00, 
 8.367E+06,  2.015E+00, -2.142E-01,  1.990E+00,  1.428E-01,  5.969E-02,  4.285E-03,  3.979E-02,  2.856E-03,  1.194E-01, -2.142E-02,  3.344E+01, -2.654E+00,  7.959E-02,  0.000E+00,  3.333E+01, -5.981E+00,  9.688E-01,  1.738E-01,  6.667E-01,  0.000E+00, 
 8.571E+06,  2.015E+00, -2.092E-01,  1.990E+00,  1.395E-01,  5.971E-02,  4.184E-03,  3.980E-02,  2.789E-03,  1.194E-01, -2.092E-02,  3.343E+01, -2.591E+00,  7.961E-02,  0.000E+00,  3.333E+01, -5.839E+00,  9.702E-01,  1.700E-01,  6.667E-01,  0.000E+00, 
 8.776E+06,  2.014E+00, -2.044E-01,  1.991E+00,  1.362E-01,  5.972E-02,  4.087E-03,  3.981E-02,  2.725E-03,  1.194E-01, -2.044E-02,  3.343E+01, -2.531E+00,  7.963E-02,  8.674E-19,  3.333E+01, -5.703E+00,  9.716E-01,  1.662E-01,  6.667E-01,  0.000E+00, 
 8.980E+06,  2.013E+00, -1.998E-01,  1.991E+00,  1.332E-01,  5.973E-02,  3.995E-03,  3.982E-02,  2.663E-03,  1.195E-01, -1.998E-02,  3.343E+01, -2.474E+00,  7.964E-02,  8.674E-19,  3.333E+01, -5.574E+00,  9.728E-01,  1.627E-01,  6.667E-01,  0.000E+00, 
 9.184E+06,  2.013E+00, -1.954E-01,  1.991E+00,  1.302E-01,  5.974E-02,  3.907E-03,  3.983E-02,  2.605E-03,  1.195E-01, -1.954E-02,  3.342E+01, -2.419E+00,  7.966E-02,  0.000E+00,  3.333E+01, -5.450E+00,  9.740E-01,  1.592E-01,  6.667E-01,  0.000E+00, 
 9.388E+06,  2.012E+00, -1.911E-01,  1.992E+00,  1.274E-01,  5.976E-02,  3.823E-03,  3.984E-02,  2.549E-03,  1.195E-01, -1.911E-02,  3.342E+01, -2.366E+00,  7.967E-02,  0.000E+00,  3.333E+01, -5.331E+00,  9.751E-01,  1.559E-01,  6.667E-01,  0.000E+00, 
 9.592E+06,  2.012E+00, -1.871E-01,  1.992E+00,  1.247E-01,  5.977E-02,  3.742E-03,  3.984E-02,  2.495E-03,  1.195E-01, -1.871E-02,  3.341E+01, -2.316E+00,  7.969E-02,  0.000E+00,  3.333E+01, -5.218E+00,  9.761E-01,  1.528E-01,  6.667E-01,  0.000E+00, 
 9.796E+06,  2.011E+00, -1.832E-01,  1.993E+00,  1.222E-01,  5.978E-02,  3.665E-03,  3.985E-02,  2.443E-03,  1.196E-01, -1.832E-02,  3.341E+01, -2.268E+00,  7.970E-02, -8.674E-19,  3.333E+01, -5.109E+00,  9.770E-01,  1.498E-01,  6.667E-01,  0.000E+00, 
 1.000E+07,  2.011E+00, -1.795E-01,  1.993E+00,  1.197E-01,  5.978E-02,  3.591E-03,  3.986E-02,  2.394E-03,  1.196E-01, -1.795E-02,  3.341E+01, -2.222E+00,  7.971E-02,  0.000E+00,  3.333E+01, -5.005E+00,  9.780E-01,  1.468E-01,  6.667E-01,  0.000E+00, 
