      Freq,    Re(Vin),    Im(Vin),   Re(Vout),   Im(Vout),     Re(Av),     Im(Av),    Re(Iin),    Im(Iin),   Re(Iout),   Im(Iout),     Re(Ai),     Im(Ai),    Re(Zin),    Im(Zin),   Re(Zout),   Im(Zout),    Re(Pin),    Im(Pin),   Re(Pout),   Im(Pout), 
        Hz,          V,          V,          V,          V,           ,           ,          A,          A,          A,          A,           ,           ,       Ohms,       Ohms,       Ohms,       Ohms,          W,          W,          W,          W, 
 1.000E+01,  2.500E+00,  7.854E-08,  2.500E+00, -9.982E-05,  1.000E+00, -3.996E-05,  5.000E-02, -1.571E-09,  5.000E-02, -1.996E-06,  1.000E+00, -3.990E-05,  5.000E+01,  3.142E-06,  5.000E+01,  3.142E-06,  1.250E-01,  7.854E-09,  1.250E-01,  8.470E-22, 
 2.041E+05,  2.375E+00, -1.115E-01,  1.662E+00, -1.860E+00,  7.350E-01, -7.484E-01,  5.249E-02,  2.230E-03,  3.325E-02, -3.719E-02,  6.022E-01, -7.341E-01,  4.508E+01, -4.038E+00,  4.508E+01, -4.038E+00,  1.244E-01, -1.115E-02,  1.244E-01,  6.939E-18, 
 4.082E+05,  1.362E+00,  3.431E-01, -6.350E-01, -2.106E+00, -8.045E-01, -1.343E+00,  7.276E-02, -6.862E-03, -1.270E-02, -4.212E-02, -1.189E-01, -5.901E-01,  1.812E+01,  6.424E+00,  1.812E+01,  6.424E+00,  9.675E-02,  3.431E-02,  9.675E-02,  3.469E-18, 
 6.123E+05,  1.850E+00,  2.094E+00, -1.147E+00, -3.559E-01, -3.672E-01,  2.233E-01,  6.299E-02, -4.188E-02, -2.294E-02, -7.117E-03, -2.004E-01, -2.462E-01,  5.040E+00,  3.660E+01,  5.040E+00,  3.660E+01,  2.884E-02,  2.094E-01,  2.884E-02,  1.735E-18, 
 8.163E+05,  3.088E+00,  2.364E+00, -5.459E-01,  1.358E-01, -9.024E-02,  1.131E-01,  3.824E-02, -4.728E-02, -1.092E-02,  2.717E-03, -1.477E-01, -1.115E-01,  1.712E+00,  6.394E+01,  1.712E+00,  6.394E+01,  6.329E-03,  2.364E-01,  6.329E-03, -2.168E-19, 
 1.020E+06,  3.779E+00,  2.128E+00, -2.516E-01,  1.512E-01, -3.344E-02,  5.884E-02,  2.442E-02, -4.256E-02, -5.031E-03,  3.024E-03, -1.045E-01, -5.826E-02,  7.156E-01,  8.838E+01,  7.156E-01,  8.838E+01,  1.723E-03,  2.128E-01,  1.723E-03, -1.084E-19, 
 1.224E+06,  4.157E+00,  1.864E+00, -1.275E-01,  1.133E-01, -1.536E-02,  3.416E-02,  1.687E-02, -3.729E-02, -2.551E-03,  2.267E-03, -7.615E-02, -3.397E-02,  3.476E-01,  1.113E+02,  3.476E-01,  1.113E+02,  5.822E-04,  1.864E-01,  5.822E-04, -5.421E-20, 
 1.429E+06,  4.383E+00,  1.641E+00, -7.070E-02,  8.110E-02, -8.070E-03,  2.153E-02,  1.235E-02, -3.283E-02, -1.414E-03,  1.622E-03, -5.748E-02, -2.146E-02,  1.882E-01,  1.334E+02,  1.882E-01,  1.334E+02,  2.315E-04,  1.641E-01,  2.315E-04, -1.355E-20, 
 1.633E+06,  4.528E+00,  1.460E+00, -4.212E-02,  5.853E-02, -4.652E-03,  1.442E-02,  9.432E-03, -2.919E-02, -8.424E-04,  1.171E-03, -4.475E-02, -1.440E-02,  1.105E-01,  1.551E+02,  1.105E-01,  1.551E+02,  1.040E-04,  1.460E-01,  1.040E-04,  0.000E+00, 
 1.837E+06,  4.628E+00,  1.311E+00, -2.658E-02,  4.312E-02, -2.872E-03,  1.013E-02,  7.443E-03, -2.623E-02, -5.315E-04,  8.625E-04, -3.576E-02, -1.012E-02,  6.904E-02,  1.764E+02,  6.904E-02,  1.764E+02,  5.132E-05,  1.311E-01,  5.132E-05, -3.388E-21, 
 2.041E+06,  4.699E+00,  1.189E+00, -1.757E-02,  3.248E-02, -1.869E-03,  7.386E-03,  6.024E-03, -2.378E-02, -3.513E-04,  6.497E-04, -2.919E-02, -7.380E-03,  4.532E-02,  1.976E+02,  4.532E-02,  1.976E+02,  2.728E-05,  1.189E-01,  2.728E-05,  0.000E+00, 
 2.245E+06,  4.751E+00,  1.087E+00, -1.206E-02,  2.499E-02, -1.270E-03,  5.550E-03,  4.976E-03, -2.174E-02, -2.413E-04,  4.997E-04, -2.426E-02, -5.546E-03,  3.096E-02,  2.186E+02,  3.096E-02,  2.186E+02,  1.540E-05,  1.087E-01,  1.540E-05,  0.000E+00, 
 2.449E+06,  4.791E+00,  1.000E+00, -8.553E-03,  1.959E-02, -8.926E-04,  4.275E-03,  4.180E-03, -2.001E-02, -1.711E-04,  3.917E-04, -2.047E-02, -4.273E-03,  2.186E-02,  2.394E+02,  2.186E-02,  2.394E+02,  9.136E-06,  1.000E-01,  9.136E-06,  4.235E-22, 
 2.653E+06,  4.822E+00,  9.264E-01, -6.229E-03,  1.561E-02, -6.460E-04,  3.362E-03,  3.561E-03, -1.853E-02, -1.246E-04,  3.123E-04, -1.750E-02, -3.361E-03,  1.588E-02,  2.602E+02,  1.588E-02,  2.602E+02,  5.652E-06,  9.264E-02,  5.652E-06,  0.000E+00, 
 2.857E+06,  4.847E+00,  8.624E-01, -4.643E-03,  1.263E-02, -4.790E-04,  2.692E-03,  3.070E-03, -1.725E-02, -9.286E-05,  2.527E-04, -1.513E-02, -2.691E-03,  1.180E-02,  2.810E+02,  1.180E-02,  2.810E+02,  3.623E-06,  8.624E-02,  3.623E-06, -2.118E-22, 
 3.061E+06,  4.866E+00,  8.065E-01, -3.530E-03,  1.036E-02, -3.627E-04,  2.189E-03,  2.674E-03, -1.613E-02, -7.061E-05,  2.072E-04, -1.320E-02, -2.188E-03,  8.958E-03,  3.017E+02,  8.958E-03,  3.017E+02,  2.395E-06,  8.065E-02,  2.395E-06,  0.000E+00, 
 3.265E+06,  4.883E+00,  7.574E-01, -2.732E-03,  8.593E-03, -2.797E-04,  1.803E-03,  2.350E-03, -1.515E-02, -5.463E-05,  1.719E-04, -1.163E-02, -1.803E-03,  6.920E-03,  3.223E+02,  6.920E-03,  3.223E+02,  1.626E-06,  7.574E-02,  1.626E-06,  0.000E+00, 
 3.469E+06,  4.896E+00,  7.138E-01, -2.146E-03,  7.204E-03, -2.192E-04,  1.503E-03,  2.082E-03, -1.428E-02, -4.293E-05,  1.441E-04, -1.031E-02, -1.503E-03,  5.430E-03,  3.430E+02,  5.430E-03,  3.430E+02,  1.130E-06,  7.138E-02,  1.130E-06,  0.000E+00, 
 3.673E+06,  4.907E+00,  6.749E-01, -1.710E-03,  6.097E-03, -1.742E-04,  1.267E-03,  1.857E-03, -1.350E-02, -3.419E-05,  1.219E-04, -9.209E-03, -1.266E-03,  4.320E-03,  3.635E+02,  4.320E-03,  3.635E+02,  8.020E-07,  6.749E-02,  8.020E-07, -2.647E-23, 
 3.878E+06,  4.917E+00,  6.400E-01, -1.378E-03,  5.205E-03, -1.402E-04,  1.077E-03,  1.666E-03, -1.280E-02, -2.757E-05,  1.041E-04, -8.273E-03, -1.077E-03,  3.480E-03,  3.841E+02,  3.480E-03,  3.841E+02,  5.798E-07,  6.400E-02,  5.798E-07,  0.000E+00, 
 4.082E+06,  4.925E+00,  6.085E-01, -1.124E-03,  4.478E-03, -1.141E-04,  9.233E-04,  1.504E-03, -1.217E-02, -2.247E-05,  8.955E-05, -7.473E-03, -9.232E-04,  2.835E-03,  4.047E+02,  2.835E-03,  4.047E+02,  4.262E-07,  6.085E-02,  4.262E-07,  0.000E+00, 
 4.286E+06,  4.932E+00,  5.799E-01, -9.251E-04,  3.879E-03, -9.379E-05,  7.976E-04,  1.364E-03, -1.160E-02, -1.850E-05,  7.758E-05, -6.783E-03, -7.975E-04,  2.332E-03,  4.252E+02,  2.332E-03,  4.252E+02,  3.181E-07,  5.799E-02,  3.181E-07,  0.000E+00, 
 4.490E+06,  4.938E+00,  5.539E-01, -7.685E-04,  3.382E-03, -7.781E-05,  6.937E-04,  1.243E-03, -1.108E-02, -1.537E-05,  6.764E-05, -6.184E-03, -6.937E-04,  1.936E-03,  4.457E+02,  1.936E-03,  4.457E+02,  2.406E-07,  5.539E-02,  2.406E-07, -6.617E-24, 
 4.694E+06,  4.943E+00,  5.301E-01, -6.436E-04,  2.966E-03, -6.510E-05,  6.071E-04,  1.137E-03, -1.060E-02, -1.287E-05,  5.933E-05, -5.661E-03, -6.071E-04,  1.621E-03,  4.662E+02,  1.621E-03,  4.662E+02,  1.843E-07,  5.301E-02,  1.843E-07,  0.000E+00, 
 4.898E+06,  4.948E+00,  5.082E-01, -5.431E-04,  2.616E-03, -5.489E-05,  5.343E-04,  1.044E-03, -1.016E-02, -1.086E-05,  5.232E-05, -5.201E-03, -5.343E-04,  1.367E-03,  4.867E+02,  1.367E-03,  4.867E+02,  1.427E-07,  5.082E-02,  1.427E-07,  0.000E+00, 
 5.102E+06,  4.952E+00,  4.881E-01, -4.615E-04,  2.318E-03, -4.660E-05,  4.727E-04,  9.623E-04, -9.762E-03, -9.230E-06,  4.636E-05, -4.796E-03, -4.727E-04,  1.161E-03,  5.072E+02,  1.161E-03,  5.072E+02,  1.117E-07,  4.881E-02,  1.117E-07,  0.000E+00, 
 5.306E+06,  4.956E+00,  4.695E-01, -3.946E-04,  2.064E-03, -3.982E-05,  4.202E-04,  8.897E-04, -9.390E-03, -7.893E-06,  4.128E-05, -4.435E-03, -4.202E-04,  9.925E-04,  5.277E+02,  9.925E-04,  5.277E+02,  8.830E-08,  4.695E-02,  8.830E-08,  0.000E+00, 
 5.510E+06,  4.959E+00,  4.523E-01, -3.394E-04,  1.845E-03, -3.423E-05,  3.753E-04,  8.250E-04, -9.045E-03, -6.789E-06,  3.691E-05, -4.114E-03, -3.753E-04,  8.534E-04,  5.482E+02,  8.534E-04,  5.482E+02,  7.041E-08,  4.523E-02,  7.041E-08, -1.654E-24, 
 5.714E+06,  4.962E+00,  4.362E-01, -2.936E-04,  1.657E-03, -2.958E-05,  3.365E-04,  7.671E-04, -8.725E-03, -5.871E-06,  3.313E-05, -3.827E-03, -3.365E-04,  7.379E-04,  5.687E+02,  7.379E-04,  5.687E+02,  5.661E-08,  4.362E-02,  5.661E-08,  0.000E+00, 
 5.918E+06,  4.964E+00,  4.213E-01, -2.552E-04,  1.493E-03, -2.570E-05,  3.029E-04,  7.152E-04, -8.426E-03, -5.104E-06,  2.985E-05, -3.568E-03, -3.028E-04,  6.413E-04,  5.891E+02,  6.413E-04,  5.891E+02,  4.586E-08,  4.213E-02,  4.586E-08,  0.000E+00, 
 6.122E+06,  4.967E+00,  4.074E-01, -2.229E-04,  1.350E-03, -2.244E-05,  2.736E-04,  6.683E-04, -8.147E-03, -4.458E-06,  2.699E-05, -3.335E-03, -2.736E-04,  5.599E-04,  6.096E+02,  5.599E-04,  6.096E+02,  3.742E-08,  4.074E-02,  3.742E-08,  0.000E+00, 
 6.327E+06,  4.969E+00,  3.943E-01, -1.955E-04,  1.224E-03, -1.968E-05,  2.479E-04,  6.258E-04, -7.886E-03, -3.911E-06,  2.448E-05, -3.124E-03, -2.479E-04,  4.911E-04,  6.301E+02,  4.911E-04,  6.301E+02,  3.074E-08,  3.943E-02,  3.074E-08, -8.272E-25, 
 6.531E+06,  4.971E+00,  3.821E-01, -1.722E-04,  1.114E-03, -1.733E-05,  2.254E-04,  5.873E-04, -7.641E-03, -3.445E-06,  2.228E-05, -2.933E-03, -2.254E-04,  4.325E-04,  6.505E+02,  4.325E-04,  6.505E+02,  2.540E-08,  3.821E-02,  2.540E-08,  0.000E+00, 
 6.735E+06,  4.972E+00,  3.705E-01, -1.523E-04,  1.016E-03, -1.532E-05,  2.055E-04,  5.523E-04, -7.411E-03, -3.046E-06,  2.033E-05, -2.758E-03, -2.055E-04,  3.825E-04,  6.709E+02,  3.825E-04,  6.709E+02,  2.112E-08,  3.705E-02,  2.112E-08, -4.136E-25, 
 6.939E+06,  4.974E+00,  3.597E-01, -1.352E-04,  9.299E-04, -1.359E-05,  1.879E-04,  5.203E-04, -7.194E-03, -2.704E-06,  1.860E-05, -2.599E-03, -1.879E-04,  3.394E-04,  6.914E+02,  3.394E-04,  6.914E+02,  1.766E-08,  3.597E-02,  1.766E-08,  0.000E+00, 
 7.143E+06,  4.975E+00,  3.495E-01, -1.204E-04,  8.529E-04, -1.210E-05,  1.723E-04,  4.910E-04, -6.990E-03, -2.408E-06,  1.706E-05, -2.453E-03, -1.723E-04,  3.022E-04,  7.118E+02,  3.022E-04,  7.118E+02,  1.484E-08,  3.495E-02,  1.484E-08,  4.136E-25, 
 7.347E+06,  4.977E+00,  3.398E-01, -1.076E-04,  7.842E-04, -1.081E-05,  1.583E-04,  4.641E-04, -6.796E-03, -2.152E-06,  1.568E-05, -2.319E-03, -1.583E-04,  2.700E-04,  7.323E+02,  2.700E-04,  7.323E+02,  1.253E-08,  3.398E-02,  1.253E-08,  0.000E+00, 
 7.551E+06,  4.978E+00,  3.307E-01, -9.644E-05,  7.227E-04, -9.686E-06,  1.458E-04,  4.393E-04, -6.614E-03, -1.929E-06,  1.445E-05, -2.195E-03, -1.458E-04,  2.420E-04,  7.527E+02,  2.420E-04,  7.527E+02,  1.063E-08,  3.307E-02,  1.063E-08,  0.000E+00, 
 7.755E+06,  4.979E+00,  3.220E-01, -8.669E-05,  6.674E-04, -8.705E-06,  1.346E-04,  4.165E-04, -6.440E-03, -1.734E-06,  1.335E-05, -2.081E-03, -1.346E-04,  2.175E-04,  7.731E+02,  2.175E-04,  7.731E+02,  9.060E-09,  3.220E-02,  9.060E-09,  2.068E-25, 
 7.959E+06,  4.980E+00,  3.138E-01, -7.814E-05,  6.177E-04, -7.845E-06,  1.245E-04,  3.954E-04, -6.276E-03, -1.563E-06,  1.235E-05, -1.976E-03, -1.245E-04,  1.961E-04,  7.936E+02,  1.961E-04,  7.936E+02,  7.752E-09,  3.138E-02,  7.752E-09,  0.000E+00, 
 8.163E+06,  4.981E+00,  3.060E-01, -7.062E-05,  5.727E-04, -7.089E-06,  1.154E-04,  3.759E-04, -6.119E-03, -1.412E-06,  1.145E-05, -1.879E-03, -1.154E-04,  1.772E-04,  8.140E+02,  1.772E-04,  8.140E+02,  6.660E-09,  3.060E-02,  6.660E-09,  1.034E-25, 
 8.367E+06,  4.982E+00,  2.985E-01, -6.399E-05,  5.320E-04, -6.422E-06,  1.072E-04,  3.578E-04, -5.971E-03, -1.280E-06,  1.064E-05, -1.788E-03, -1.072E-04,  1.605E-04,  8.344E+02,  1.605E-04,  8.344E+02,  5.743E-09,  2.985E-02,  5.743E-09,  0.000E+00, 
 8.571E+06,  4.983E+00,  2.915E-01, -5.811E-05,  4.951E-04, -5.831E-06,  9.970E-05,  3.409E-04, -5.829E-03, -1.162E-06,  9.902E-06, -1.704E-03, -9.970E-05,  1.458E-04,  8.548E+02,  1.458E-04,  8.548E+02,  4.970E-09,  2.915E-02,  4.970E-09,  0.000E+00, 
 8.776E+06,  4.984E+00,  2.847E-01, -5.290E-05,  4.615E-04, -5.307E-06,  9.290E-05,  3.253E-04, -5.694E-03, -1.058E-06,  9.230E-06, -1.626E-03, -9.290E-05,  1.327E-04,  8.753E+02,  1.327E-04,  8.753E+02,  4.315E-09,  2.847E-02,  4.315E-09, -1.034E-25, 
 8.980E+06,  4.984E+00,  2.782E-01, -4.825E-05,  4.309E-04, -4.840E-06,  8.671E-05,  3.107E-04, -5.565E-03, -9.651E-07,  8.617E-06, -1.553E-03, -8.671E-05,  1.210E-04,  8.957E+02,  1.210E-04,  8.957E+02,  3.759E-09,  2.782E-02,  3.759E-09, -5.170E-26, 
 9.184E+06,  4.985E+00,  2.721E-01, -4.411E-05,  4.029E-04, -4.424E-06,  8.106E-05,  2.970E-04, -5.442E-03, -8.822E-07,  8.057E-06, -1.485E-03, -8.106E-05,  1.106E-04,  9.161E+02,  1.106E-04,  9.161E+02,  3.285E-09,  2.721E-02,  3.285E-09,  5.170E-26, 
 9.388E+06,  4.986E+00,  2.662E-01, -4.040E-05,  3.773E-04, -4.051E-06,  7.588E-05,  2.842E-04, -5.324E-03, -8.080E-07,  7.545E-06, -1.421E-03, -7.588E-05,  1.013E-04,  9.365E+02,  1.013E-04,  9.365E+02,  2.879E-09,  2.662E-02,  2.879E-09,  0.000E+00, 
 9.592E+06,  4.986E+00,  2.605E-01, -3.707E-05,  3.538E-04, -3.717E-06,  7.114E-05,  2.723E-04, -5.211E-03, -7.414E-07,  7.076E-06, -1.362E-03, -7.114E-05,  9.295E-05,  9.569E+02,  9.295E-05,  9.569E+02,  2.531E-09,  2.605E-02,  2.531E-09,  0.000E+00, 
 9.796E+06,  4.987E+00,  2.551E-01, -3.408E-05,  3.322E-04, -3.417E-06,  6.679E-05,  2.610E-04, -5.102E-03, -6.816E-07,  6.644E-06, -1.306E-03, -6.679E-05,  8.544E-05,  9.774E+02,  8.544E-05,  9.774E+02,  2.230E-09,  2.551E-02,  2.230E-09,  0.000E+00, 
 1.000E+07,  4.987E+00,  2.499E-01, -3.138E-05,  3.123E-04, -3.146E-06,  6.278E-05,  2.505E-04, -4.999E-03, -6.276E-07,  6.247E-06, -1.253E-03, -6.278E-05,  7.868E-05,  9.978E+02,  7.868E-05,  9.978E+02,  1.971E-09,  2.499E-02,  1.971E-09, -2.585E-26, 
