      Freq,    Re(Vin),    Im(Vin),   Re(Vout),   Im(Vout),     Re(Av),     Im(Av),    Re(Iin),    Im(Iin),   Re(Iout),   Im(Iout),     Re(Ai),     Im(Ai),    Re(Zin),    Im(Zin),   Re(Zout),   Im(Zout),    Re(Pin),    Im(Pin),   Re(Pout),   Im(Pout), 
        Hz,          V,          V,          V,          V,           ,           ,          A,          A,          A,          A,           ,           ,       Ohms,       Ohms,       Ohms,       Ohms,          W,          W,          W,          W, 
 1.000E+01,  2.500E+00, -3.907E-05,  2.500E+00, -8.777E-05,  1.000E+00, -1.948E-05,  5.000E-02,  7.815E-07,  5.000E-02, -1.755E-06,  1.000E+00, -5.074E-05,  5.000E+01, -1.563E-03,  5.000E+01, -1.563E-03,  1.250E-01, -3.907E-06,  1.250E-01,  8.470E-22, 
 2.041E+05,  1.771E+00, -2.914E-01,  1.790E+00, -1.559E+00,  1.125E+00, -6.954E-01,  6.458E-02,  5.827E-03,  3.579E-02, -3.118E-02,  5.065E-01, -5.285E-01,  2.679E+01, -6.929E+00,  3.606E+01, -2.440E+01,  1.127E-01, -2.914E-02,  1.127E-01,  6.939E-18, 
 4.082E+05,  1.454E+00,  1.072E+00,  2.834E-01, -1.982E+00, -5.245E-01, -9.759E-01,  7.091E-02, -2.144E-02,  5.667E-03, -3.963E-02,  2.281E-01, -4.900E-01,  1.461E+01,  1.953E+01,  1.669E+01, -2.752E+01,  8.015E-02,  1.072E-01,  8.015E-02,  0.000E+00, 
 6.123E+05,  3.116E+00,  1.934E+00, -7.265E-01, -1.266E+00, -3.503E-01, -1.889E-01,  3.767E-02, -3.867E-02, -1.453E-02, -2.532E-02,  1.482E-01, -5.201E-01,  1.462E+01,  6.634E+01,  6.209E+00, -2.197E+01,  4.262E-02,  1.934E-01,  4.262E-02,  0.000E+00, 
 8.163E+05,  4.638E+00,  8.801E-01, -8.276E-01, -4.663E-01, -1.906E-01, -6.437E-02,  7.230E-03, -1.760E-02, -1.655E-02, -9.327E-03,  1.229E-01, -9.908E-01,  4.984E+01,  2.431E+02,  2.159E+00, -1.643E+01,  1.805E-02,  8.801E-02,  1.805E-02,  0.000E+00, 
 1.020E+06,  4.851E+00, -6.038E-01, -5.942E-01, -7.287E-02, -1.188E-01, -2.981E-02,  2.981E-03,  1.208E-02, -1.188E-02, -1.457E-03, -3.427E-01,  8.995E-01,  4.632E+01, -3.903E+02,  7.853E-01, -1.264E+01,  7.167E-03, -6.038E-02,  7.167E-03,  1.084E-19, 
 1.224E+06,  4.364E+00, -1.620E+00, -3.806E-01,  6.016E-02, -8.113E-02, -1.634E-02,  1.271E-02,  3.241E-02, -7.612E-03,  1.203E-03, -4.767E-02,  2.162E-01,  2.450E+00, -1.337E+02,  3.130E-01, -1.018E+01,  2.969E-03, -1.620E-01,  2.969E-03,  0.000E+00, 
 1.429E+06,  3.721E+00, -2.166E+00, -2.410E-01,  9.074E-02, -5.899E-02, -9.957E-03,  2.559E-02,  4.333E-02, -4.821E-03,  1.815E-03, -1.766E-02,  1.008E-01,  5.240E-01, -8.556E+01,  1.373E-01, -8.521E+00,  1.327E-03, -2.166E-01,  1.327E-03, -5.421E-20, 
 1.633E+06,  3.125E+00, -2.414E+00, -1.559E-01,  8.785E-02, -4.485E-02, -6.531E-03,  3.751E-02,  4.828E-02, -3.118E-03,  1.757E-03, -8.590E-03,  5.790E-02,  1.713E-01, -6.458E+01,  6.559E-02, -7.333E+00,  6.404E-04, -2.414E-01,  6.404E-04,  0.000E+00, 
 1.837E+06,  2.625E+00, -2.494E+00, -1.038E-01,  7.606E-02, -3.526E-02, -4.521E-03,  4.751E-02,  4.987E-02, -2.076E-03,  1.521E-03, -4.802E-03,  3.706E-02,  6.983E-02, -5.256E+01,  3.372E-02, -6.443E+00,  3.313E-04, -2.494E-01,  3.313E-04,  0.000E+00, 
 2.041E+06,  2.219E+00, -2.482E+00, -7.124E-02,  6.341E-02, -2.846E-02, -3.262E-03,  5.563E-02,  4.965E-02, -1.425E-03,  1.268E-03, -2.932E-03,  2.542E-02,  3.273E-02, -4.465E+01,  1.845E-02, -5.752E+00,  1.819E-04, -2.482E-01,  1.819E-04,  0.000E+00, 
 2.245E+06,  1.891E+00, -2.424E+00, -5.026E-02,  5.226E-02, -2.346E-02, -2.432E-03,  6.218E-02,  4.847E-02, -1.005E-03,  1.045E-03, -1.905E-03,  1.829E-02,  1.692E-02, -3.899E+01,  1.063E-02, -5.198E+00,  1.051E-04, -2.424E-01,  1.051E-04,  0.000E+00, 
 2.449E+06,  1.626E+00, -2.342E+00, -3.636E-02,  4.304E-02, -1.967E-02, -1.863E-03,  6.747E-02,  4.683E-02, -7.272E-04,  8.608E-04, -1.297E-03,  1.366E-02,  9.411E-03, -3.471E+01,  6.407E-03, -4.743E+00,  6.348E-05, -2.342E-01,  6.348E-05,  0.000E+00, 
 2.653E+06,  1.411E+00, -2.250E+00, -2.689E-02,  3.560E-02, -1.674E-02, -1.458E-03,  7.179E-02,  4.500E-02, -5.378E-04,  7.119E-04, -9.161E-04,  1.049E-02,  5.545E-03, -3.134E+01,  4.011E-03, -4.364E+00,  3.980E-05, -2.250E-01,  3.980E-05, -3.388E-21, 
 2.857E+06,  1.233E+00, -2.155E+00, -2.029E-02,  2.963E-02, -1.441E-02, -1.164E-03,  7.533E-02,  4.310E-02, -4.057E-04,  5.925E-04, -6.668E-04,  8.247E-03,  3.423E-03, -2.861E+01,  2.596E-03, -4.041E+00,  2.578E-05, -2.155E-01,  2.578E-05,  0.000E+00, 
 3.061E+06,  1.087E+00, -2.062E+00, -1.557E-02,  2.484E-02, -1.254E-02, -9.433E-04,  7.827E-02,  4.124E-02, -3.115E-04,  4.967E-04, -4.976E-04,  6.609E-03,  2.196E-03, -2.635E+01,  1.729E-03, -3.764E+00,  1.719E-05, -2.062E-01,  1.719E-05,  0.000E+00, 
 3.265E+06,  9.638E-01, -1.972E+00, -1.214E-02,  2.097E-02, -1.101E-02, -7.754E-04,  8.072E-02,  3.944E-02, -2.429E-04,  4.195E-04, -3.792E-04,  5.382E-03,  1.455E-03, -2.443E+01,  1.181E-03, -3.522E+00,  1.175E-05, -1.972E-01,  1.175E-05,  0.000E+00, 
 3.469E+06,  8.601E-01, -1.887E+00, -9.604E-03,  1.784E-02, -9.750E-03, -6.452E-04,  8.280E-02,  3.774E-02, -1.921E-04,  3.569E-04, -2.943E-04,  4.444E-03,  9.918E-04, -2.279E+01,  8.248E-04, -3.311E+00,  8.212E-06, -1.887E-01,  8.212E-06,  4.235E-22, 
 3.673E+06,  7.720E-01, -1.807E+00, -7.691E-03,  1.528E-02, -8.692E-03, -5.427E-04,  8.456E-02,  3.613E-02, -1.538E-04,  3.057E-04, -2.320E-04,  3.714E-03,  6.924E-04, -2.137E+01,  5.878E-04, -3.123E+00,  5.855E-06, -1.807E-01,  5.855E-06,  0.000E+00, 
 3.878E+06,  6.966E-01, -1.731E+00, -6.229E-03,  1.318E-02, -7.797E-03, -4.608E-04,  8.607E-02,  3.463E-02, -1.246E-04,  2.636E-04, -1.855E-04,  3.137E-03,  4.937E-04, -2.012E+01,  4.264E-04, -2.956E+00,  4.249E-06, -1.731E-01,  4.249E-06,  0.000E+00, 
 4.082E+06,  6.315E-01, -1.661E+00, -5.097E-03,  1.143E-02, -7.034E-03, -3.946E-04,  8.737E-02,  3.322E-02, -1.019E-04,  2.287E-04, -1.501E-04,  2.674E-03,  3.587E-04, -1.901E+01,  3.144E-04, -2.806E+00,  3.134E-06, -1.661E-01,  3.134E-06,  0.000E+00, 
 4.286E+06,  5.750E-01, -1.595E+00, -4.210E-03,  9.977E-03, -6.378E-03, -3.405E-04,  8.850E-02,  3.190E-02, -8.420E-05,  1.995E-04, -1.228E-04,  2.299E-03,  2.650E-04, -1.802E+01,  2.352E-04, -2.670E+00,  2.345E-06, -1.595E-01,  2.345E-06,  1.059E-22, 
 4.490E+06,  5.256E-01, -1.534E+00, -3.507E-03,  8.753E-03, -5.809E-03, -2.959E-04,  8.949E-02,  3.067E-02, -7.015E-05,  1.751E-04, -1.014E-04,  1.991E-03,  1.987E-04, -1.714E+01,  1.783E-04, -2.547E+00,  1.778E-06, -1.534E-01,  1.778E-06,  0.000E+00, 
 4.694E+06,  4.823E-01, -1.476E+00, -2.945E-03,  7.719E-03, -5.314E-03, -2.588E-04,  9.035E-02,  2.952E-02, -5.890E-05,  1.544E-04, -8.456E-05,  1.736E-03,  1.511E-04, -1.634E+01,  1.368E-04, -2.435E+00,  1.365E-06, -1.476E-01,  1.365E-06,  0.000E+00, 
 4.898E+06,  4.441E-01, -1.422E+00, -2.490E-03,  6.839E-03, -4.879E-03, -2.276E-04,  9.112E-02,  2.845E-02, -4.981E-05,  1.368E-04, -7.107E-05,  1.523E-03,  1.163E-04, -1.561E+01,  1.062E-04, -2.333E+00,  1.059E-06, -1.422E-01,  1.059E-06, -5.294E-23, 
 5.102E+06,  4.102E-01, -1.372E+00, -2.120E-03,  6.086E-03, -4.495E-03, -2.012E-04,  9.180E-02,  2.744E-02, -4.240E-05,  1.217E-04, -6.017E-05,  1.344E-03,  9.049E-05, -1.495E+01,  8.323E-05, -2.238E+00,  8.306E-07, -1.372E-01,  8.306E-07,  0.000E+00, 
 5.306E+06,  3.800E-01, -1.325E+00, -1.816E-03,  5.438E-03, -4.156E-03, -1.788E-04,  9.240E-02,  2.650E-02, -3.632E-05,  1.088E-04, -5.129E-05,  1.192E-03,  7.115E-05, -1.434E+01,  6.586E-05, -2.152E+00,  6.574E-07, -1.325E-01,  6.574E-07,  2.647E-23, 
 5.510E+06,  3.530E-01, -1.281E+00, -1.564E-03,  4.878E-03, -3.853E-03, -1.596E-04,  9.294E-02,  2.562E-02, -3.129E-05,  9.756E-05, -4.399E-05,  1.062E-03,  5.647E-05, -1.378E+01,  5.258E-05, -2.071E+00,  5.249E-07, -1.281E-01,  5.249E-07,  0.000E+00, 
 5.714E+06,  3.288E-01, -1.239E+00, -1.355E-03,  4.392E-03, -3.582E-03, -1.430E-04,  9.342E-02,  2.478E-02, -2.710E-05,  8.784E-05, -3.795E-05,  9.502E-04,  4.522E-05, -1.326E+01,  4.231E-05, -1.997E+00,  4.225E-07, -1.239E-01,  4.225E-07,  0.000E+00, 
 5.918E+06,  3.069E-01, -1.200E+00, -1.179E-03,  3.967E-03, -3.339E-03, -1.287E-04,  9.386E-02,  2.400E-02, -2.358E-05,  7.935E-05, -3.291E-05,  8.538E-04,  3.650E-05, -1.279E+01,  3.431E-05, -1.927E+00,  3.426E-07, -1.200E-01,  3.426E-07,  0.000E+00, 
 6.122E+06,  2.872E-01, -1.163E+00, -1.031E-03,  3.596E-03, -3.119E-03, -1.162E-04,  9.426E-02,  2.327E-02, -2.062E-05,  7.191E-05, -2.869E-05,  7.700E-04,  2.969E-05, -1.234E+01,  2.802E-05, -1.863E+00,  2.798E-07, -1.163E-01,  2.798E-07,  0.000E+00, 
 6.327E+06,  2.692E-01, -1.129E+00, -9.053E-04,  3.268E-03, -2.921E-03, -1.053E-04,  9.462E-02,  2.257E-02, -1.811E-05,  6.537E-05, -2.512E-05,  6.969E-04,  2.431E-05, -1.193E+01,  2.303E-05, -1.802E+00,  2.300E-07, -1.129E-01,  2.300E-07, -6.617E-24, 
 6.531E+06,  2.529E-01, -1.096E+00, -7.982E-04,  2.979E-03, -2.741E-03, -9.570E-05,  9.494E-02,  2.192E-02, -1.596E-05,  5.959E-05, -2.209E-05,  6.327E-04,  2.004E-05, -1.154E+01,  1.905E-05, -1.746E+00,  1.903E-07, -1.096E-01,  1.903E-07,  0.000E+00, 
 6.735E+06,  2.381E-01, -1.065E+00, -7.064E-04,  2.723E-03, -2.577E-03, -8.723E-05,  9.524E-02,  2.129E-02, -1.413E-05,  5.447E-05, -1.951E-05,  5.763E-04,  1.662E-05, -1.118E+01,  1.585E-05, -1.692E+00,  1.583E-07, -1.065E-01,  1.583E-07,  0.000E+00, 
 6.939E+06,  2.245E-01, -1.035E+00, -6.275E-04,  2.496E-03, -2.428E-03, -7.974E-05,  9.551E-02,  2.071E-02, -1.255E-05,  4.991E-05, -1.729E-05,  5.263E-04,  1.387E-05, -1.084E+01,  1.326E-05, -1.642E+00,  1.324E-07, -1.035E-01,  1.324E-07,  0.000E+00, 
 7.143E+06,  2.120E-01, -1.007E+00, -5.592E-04,  2.292E-03, -2.291E-03, -7.309E-05,  9.576E-02,  2.015E-02, -1.118E-05,  4.585E-05, -1.538E-05,  4.820E-04,  1.163E-05, -1.052E+01,  1.115E-05, -1.595E+00,  1.114E-07, -1.007E-01,  1.114E-07,  0.000E+00, 
 7.347E+06,  2.005E-01, -9.810E-01, -5.000E-04,  2.111E-03, -2.165E-03, -6.715E-05,  9.599E-02,  1.962E-02, -1.000E-05,  4.221E-05, -1.373E-05,  4.426E-04,  9.802E-06, -1.022E+01,  9.418E-06, -1.551E+00,  9.409E-08, -9.810E-02,  9.409E-08,  3.309E-24, 
 7.551E+06,  1.900E-01, -9.559E-01, -4.484E-04,  1.947E-03, -2.050E-03, -6.184E-05,  9.620E-02,  1.912E-02, -8.969E-06,  3.895E-05, -1.229E-05,  4.073E-04,  8.302E-06, -9.936E+00,  7.994E-06, -1.509E+00,  7.987E-08, -9.559E-02,  7.987E-08,  0.000E+00, 
 7.755E+06,  1.802E-01, -9.319E-01, -4.033E-04,  1.800E-03, -1.943E-03, -5.708E-05,  9.640E-02,  1.864E-02, -8.066E-06,  3.601E-05, -1.104E-05,  3.757E-04,  7.063E-06, -9.668E+00,  6.815E-06, -1.469E+00,  6.809E-08, -9.319E-02,  6.809E-08,  0.000E+00, 
 7.959E+06,  1.712E-01, -9.092E-01, -3.637E-04,  1.668E-03, -1.845E-03, -5.279E-05,  9.658E-02,  1.818E-02, -7.275E-06,  3.336E-05, -9.939E-06,  3.473E-04,  6.035E-06, -9.414E+00,  5.833E-06, -1.431E+00,  5.829E-08, -9.092E-02,  5.829E-08, -1.654E-24, 
 8.163E+06,  1.628E-01, -8.874E-01, -3.289E-04,  1.548E-03, -1.753E-03, -4.892E-05,  9.674E-02,  1.775E-02, -6.578E-06,  3.096E-05, -8.975E-06,  3.217E-04,  5.178E-06, -9.173E+00,  5.013E-06, -1.395E+00,  5.009E-08, -8.874E-02,  5.009E-08, -1.654E-24, 
 8.367E+06,  1.550E-01, -8.667E-01, -2.981E-04,  1.439E-03, -1.669E-03, -4.542E-05,  9.690E-02,  1.733E-02, -5.962E-06,  2.879E-05, -8.125E-06,  2.985E-04,  4.459E-06, -8.944E+00,  4.324E-06, -1.361E+00,  4.321E-08, -8.667E-02,  4.321E-08,  0.000E+00, 
 8.571E+06,  1.478E-01, -8.469E-01, -2.708E-04,  1.340E-03, -1.590E-03, -4.225E-05,  9.704E-02,  1.694E-02, -5.417E-06,  2.681E-05, -7.374E-06,  2.775E-04,  3.854E-06, -8.727E+00,  3.743E-06, -1.328E+00,  3.740E-08, -8.469E-02,  3.740E-08,  0.000E+00, 
 8.776E+06,  1.411E-01, -8.279E-01, -2.466E-04,  1.250E-03, -1.517E-03, -3.937E-05,  9.718E-02,  1.656E-02, -4.932E-06,  2.501E-05, -6.708E-06,  2.585E-04,  3.343E-06, -8.520E+00,  3.251E-06, -1.297E+00,  3.249E-08, -8.279E-02,  3.249E-08,  0.000E+00, 
 8.980E+06,  1.348E-01, -8.098E-01, -2.250E-04,  1.168E-03, -1.449E-03, -3.674E-05,  9.730E-02,  1.620E-02, -4.501E-06,  2.337E-05, -6.115E-06,  2.412E-04,  2.910E-06, -8.322E+00,  2.833E-06, -1.268E+00,  2.831E-08, -8.098E-02,  2.831E-08,  0.000E+00, 
 9.184E+06,  1.289E-01, -7.924E-01, -2.058E-04,  1.093E-03, -1.385E-03, -3.434E-05,  9.742E-02,  1.585E-02, -4.115E-06,  2.186E-05, -5.586E-06,  2.253E-04,  2.540E-06, -8.134E+00,  2.476E-06, -1.240E+00,  2.475E-08, -7.924E-02,  2.475E-08,  0.000E+00, 
 9.388E+06,  1.234E-01, -7.758E-01, -1.885E-04,  1.024E-03, -1.325E-03, -3.214E-05,  9.753E-02,  1.552E-02, -3.770E-06,  2.049E-05, -5.114E-06,  2.109E-04,  2.224E-06, -7.954E+00,  2.171E-06, -1.213E+00,  2.170E-08, -7.758E-02,  2.170E-08,  0.000E+00, 
 9.592E+06,  1.183E-01, -7.598E-01, -1.730E-04,  9.611E-04, -1.270E-03, -3.013E-05,  9.763E-02,  1.520E-02, -3.461E-06,  1.922E-05, -4.690E-06,  1.976E-04,  1.954E-06, -7.782E+00,  1.908E-06, -1.187E+00,  1.907E-08, -7.598E-02,  1.907E-08,  0.000E+00, 
 9.796E+06,  1.134E-01, -7.444E-01, -1.591E-04,  9.030E-04, -1.217E-03, -2.829E-05,  9.773E-02,  1.489E-02, -3.182E-06,  1.806E-05, -4.309E-06,  1.854E-04,  1.720E-06, -7.617E+00,  1.682E-06, -1.162E+00,  1.681E-08, -7.444E-02,  1.681E-08,  0.000E+00, 
 1.000E+07,  1.089E-01, -7.297E-01, -1.466E-04,  8.494E-04, -1.168E-03, -2.659E-05,  9.782E-02,  1.459E-02, -2.931E-06,  1.699E-05, -3.967E-06,  1.743E-04,  1.519E-06, -7.459E+00,  1.487E-06, -1.138E+00,  1.486E-08, -7.297E-02,  1.486E-08,  0.000E+00, 
